Freq.	V(vo)
Step Information: Run=1  (Run: 1/10)
1.00000000000000e+001	(-2.83796886880140e-004dB,1.79711710539766e+002°)
1.02329299228075e+001	(-2.88976581010819e-004dB,1.79704995532852e+002°)
1.04712854805090e+001	(-2.94400379980970e-004dB,1.79698124121720e+002°)
1.07151930523761e+001	(-3.00079787464417e-004dB,1.79691092663847e+002°)
1.09647819614319e+001	(-3.06026849215967e-004dB,1.79683897431909e+002°)
1.12201845430196e+001	(-3.12254178623733e-004dB,1.79676534611805e+002°)
1.14815362149688e+001	(-3.18774983455877e-004dB,1.79669000300645e+002°)
1.17489755493953e+001	(-3.25603093854867e-004dB,1.79661290504678e+002°)
1.20226443461741e+001	(-3.32752991682495e-004dB,1.79653401137186e+002°)
1.23026877081238e+001	(-3.40239841192577e-004dB,1.79645328016319e+002°)
1.25892541179417e+001	(-3.48079521217518e-004dB,1.79637066862882e+002°)
1.28824955169313e+001	(-3.56288658810970e-004dB,1.79628613298076e+002°)
1.31825673855641e+001	(-3.64884664506741e-004dB,1.79619962841183e+002°)
1.34896288259165e+001	(-3.73885769233593e-004dB,1.79611110907193e+002°)
1.38038426460288e+001	(-3.83311062968001e-004dB,1.79602052804383e+002°)
1.41253754462275e+001	(-3.93180535182839e-004dB,1.79592783731839e+002°)
1.44543977074593e+001	(-4.03515117254142e-004dB,1.79583298776915e+002°)
1.47910838816821e+001	(-4.14336726816421e-004dB,1.79573592912644e+002°)
1.51356124843621e+001	(-4.25668314223880e-004dB,1.79563660995075e+002°)
1.54881661891248e+001	(-4.37533911203512e-004dB,1.79553497760562e+002°)
1.58489319246111e+001	(-4.49958681791888e-004dB,1.79543097822981e+002°)
1.62181009735893e+001	(-4.62968975683099e-004dB,1.79532455670889e+002°)
1.65958690743756e+001	(-4.76592384059454e-004dB,1.79521565664614e+002°)
1.69824365246174e+001	(-4.90857798089350e-004dB,1.79510422033276e+002°)
1.73780082874937e+001	(-5.05795470145605e-004dB,1.79499018871747e+002°)
1.77827941003892e+001	(-5.21437077931635e-004dB,1.79487350137534e+002°)
1.81970085860998e+001	(-5.37815791599668e-004dB,1.79475409647591e+002°)
1.86208713666287e+001	(-5.54966344060976e-004dB,1.79463191075060e+002°)
1.90546071796325e+001	(-5.72925104563693e-004dB,1.79450687945938e+002°)
1.94984459975804e+001	(-5.91730155780700e-004dB,1.79437893635664e+002°)
1.99526231496888e+001	(-6.11421374485168e-004dB,1.79424801365628e+002°)
2.04173794466953e+001	(-6.32040516041830e-004dB,1.79411404199604e+002°)
2.08929613085404e+001	(-6.53631302879438e-004dB,1.79397695040098e+002°)
2.13796208950223e+001	(-6.76239517111815e-004dB,1.79383666624610e+002°)
2.18776162394955e+001	(-6.99913097509715e-004dB,1.79369311521816e+002°)
2.23872113856834e+001	(-7.24702241070099e-004dB,1.79354622127660e+002°)
2.29086765276777e+001	(-7.50659509318615e-004dB,1.79339590661353e+002°)
2.34422881531992e+001	(-7.77839939648960e-004dB,1.79324209161291e+002°)
2.39883291901949e+001	(-8.06301161877476e-004dB,1.79308469480866e+002°)
2.45470891568503e+001	(-8.36103520270546e-004dB,1.79292363284193e+002°)
2.51188643150958e+001	(-8.67310201348708e-004dB,1.79275882041736e+002°)
2.57039578276886e+001	(-8.99987367662567e-004dB,1.79259017025831e+002°)
2.63026799189538e+001	(-9.34204297851404e-004dB,1.79241759306113e+002°)
2.69153480392691e+001	(-9.70033533341830e-004dB,1.79224099744835e+002°)
2.75422870333816e+001	(-1.00755103186649e-003dB,1.79206028992085e+002°)
2.81838293126445e+001	(-1.04683632824919e-003dB,1.79187537480892e+002°)
2.88403150312660e+001	(-1.08797270273035e-003dB,1.79168615422218e+002°)
2.95120922666638e+001	(-1.13104735719750e-003dB,1.79149252799849e+002°)
3.01995172040201e+001	(-1.17615159968965e-003dB,1.79129439365155e+002°)
3.09029543251359e+001	(-1.22338103757251e-003dB,1.79109164631746e+002°)
3.16227766016838e+001	(-1.27283577979627e-003dB,1.79088417869998e+002°)
3.23593656929628e+001	(-1.32462064862388e-003dB,1.79067188101467e+002°)
3.31131121482591e+001	(-1.37884540132876e-003dB,1.79045464093163e+002°)
3.38844156139202e+001	(-1.43562496225444e-003dB,1.79023234351715e+002°)
3.46736850452531e+001	(-1.49507966582164e-003dB,1.79000487117389e+002°)
3.54813389233575e+001	(-1.55733551087783e-003dB,1.78977210357981e+002°)
3.63078054770101e+001	(-1.62252442702104e-003dB,1.78953391762580e+002°)
3.71535229097172e+001	(-1.69078455338251e-003dB,1.78929018735180e+002°)
3.80189396320561e+001	(-1.76226053049618e-003dB,1.78904078388162e+002°)
3.89045144994280e+001	(-1.83710380583610e-003dB,1.78878557535629e+002°)
3.98107170553497e+001	(-1.91547295369148e-003dB,1.78852442686592e+002°)
4.07380277804112e+001	(-1.99753401000042e-003dB,1.78825720038014e+002°)
4.16869383470335e+001	(-2.08346082287401e-003dB,1.78798375467694e+002°)
4.26579518801592e+001	(-2.17343541955031e-003dB,1.78770394527006e+002°)
4.36515832240165e+001	(-2.26764839048450e-003dB,1.78741762433469e+002°)
4.46683592150962e+001	(-2.36629929144970e-003dB,1.78712464063167e+002°)
4.57088189614874e+001	(-2.46959706441850e-003dB,1.78682483943005e+002°)
4.67735141287197e+001	(-2.57776047813569e-003dB,1.78651806242789e+002°)
4.78630092322638e+001	(-2.69101858927057e-003dB,1.78620414767154e+002°)
4.89778819368445e+001	(-2.80961122512739e-003dB,1.78588292947305e+002°)
5.01187233627271e+001	(-2.93378948888448e-003dB,1.78555423832598e+002°)
5.12861383991364e+001	(-3.06381628843552e-003dB,1.78521790081927e+002°)
5.24807460249772e+001	(-3.19996688988409e-003dB,1.78487373954950e+002°)
5.37031796370252e+001	(-3.34252949686536e-003dB,1.78452157303120e+002°)
5.49540873857624e+001	(-3.49180585687096e-003dB,1.78416121560536e+002°)
5.62341325190348e+001	(-3.64811189580555e-003dB,1.78379247734605e+002°)
5.75439937337156e+001	(-3.81177838211543e-003dB,1.78341516396511e+002°)
5.88843655355588e+001	(-3.98315162180744e-003dB,1.78302907671502e+002°)
6.02559586074357e+001	(-4.16259418577758e-003dB,1.78263401228965e+002°)
6.16595001861481e+001	(-4.35048567097899e-003dB,1.78222976272320e+002°)
6.30957344480192e+001	(-4.54722349691316e-003dB,1.78181611528704e+002°)
6.45654229034654e+001	(-4.75322373910895e-003dB,1.78139285238457e+002°)
6.60693448007595e+001	(-4.96892200124938e-003dB,1.78095975144403e+002°)
6.76082975391980e+001	(-5.19477432771298e-003dB,1.78051658480928e+002°)
6.91830970918935e+001	(-5.43125815840068e-003dB,1.78006311962848e+002°)
7.07945784384136e+001	(-5.67887332770777e-003dB,1.77959911774069e+002°)
7.24435960074988e+001	(-5.93814310969448e-003dB,1.77912433556035e+002°)
7.41310241300916e+001	(-6.20961531153493e-003dB,1.77863852395974e+002°)
7.58577575029182e+001	(-6.49386341739989e-003dB,1.77814142814919e+002°)
7.76247116628690e+001	(-6.79148778508713e-003dB,1.77763278755522e+002°)
7.94328234724279e+001	(-7.10311689775221e-003dB,1.77711233569663e+002°)
8.12830516164097e+001	(-7.42940867317761e-003dB,1.77657980005833e+002°)
8.31763771102669e+001	(-7.77105183323870e-003dB,1.77603490196315e+002°)
8.51138038202374e+001	(-8.12876733616513e-003dB,1.77547735644146e+002°)
8.70963589956078e+001	(-8.50330987446959e-003dB,1.77490687209875e+002°)
8.91250938133743e+001	(-8.89546944138708e-003dB,1.77432315098111e+002°)
9.12010839355907e+001	(-9.30607296893068e-003dB,1.77372588843861e+002°)
9.33254300796988e+001	(-9.73598604067846e-003dB,1.77311477298665e+002°)
9.54992586021433e+001	(-1.01861146825815e-002dB,1.77248948616537e+002°)
9.77237220955808e+001	(-1.06574072352372e-002dB,1.77184970239700e+002°)
9.99999999999997e+001	(-1.11508563111597e-002dB,1.77119508884134e+002°)
1.02329299228075e+002	(-1.16675008407788e-002dB,1.77052530524938e+002°)
1.04712854805090e+002	(-1.22084282109579e-002dB,1.76984000381509e+002°)
1.07151930523760e+002	(-1.27747765000818e-002dB,1.76913882902546e+002°)
1.09647819614318e+002	(-1.33677368138360e-002dB,1.76842141750895e+002°)
1.12201845430196e+002	(-1.39885557259627e-002dB,1.76768739788225e+002°)
1.14815362149688e+002	(-1.46385378284922e-002dB,1.76693639059573e+002°)
1.17489755493953e+002	(-1.53190483960632e-002dB,1.76616800777735e+002°)
1.20226443461741e+002	(-1.60315161691137e-002dB,1.76538185307549e+002°)
1.23026877081238e+002	(-1.67774362609532e-002dB,1.76457752150060e+002°)
1.25892541179416e+002	(-1.75583731938259e-002dB,1.76375459926589e+002°)
1.28824955169313e+002	(-1.83759640692913e-002dB,1.76291266362730e+002°)
1.31825673855640e+002	(-1.92319218784527e-002dB,1.76205128272282e+002°)
1.34896288259165e+002	(-2.01280389576735e-002dB,1.76117001541142e+002°)
1.38038426460288e+002	(-2.10661905956742e-002dB,1.76026841111182e+002°)
1.41253754462275e+002	(-2.20483387980936e-002dB,1.75934600964128e+002°)
1.44543977074592e+002	(-2.30765362156561e-002dB,1.75840234105474e+002°)
1.47910838816820e+002	(-2.41529302424769e-002dB,1.75743692548459e+002°)
1.51356124843620e+002	(-2.52797672910297e-002dB,1.75644927298127e+002°)
1.54881661891248e+002	(-2.64593972505917e-002dB,1.75543888335521e+002°)
1.58489319246111e+002	(-2.76942781361114e-002dB,1.75440524602030e+002°)
1.62181009735892e+002	(-2.89869809346588e-002dB,1.75334783983941e+002°)
1.65958690743755e+002	(-3.03401946567219e-002dB,1.75226613297237e+002°)
1.69824365246174e+002	(-3.17567315998132e-002dB,1.75115958272671e+002°)
1.73780082874937e+002	(-3.32395328320474e-002dB,1.75002763541194e+002°)
1.77827941003892e+002	(-3.47916739033537e-002dB,1.74886972619761e+002°)
1.81970085860998e+002	(-3.64163707922655e-002dB,1.74768527897592e+002°)
1.86208713666286e+002	(-3.81169860962574e-002dB,1.74647370622945e+002°)
1.90546071796324e+002	(-3.98970354736950e-002dB,1.74523440890459e+002°)
1.94984459975804e+002	(-4.17601943455706e-002dB,1.74396677629146e+002°)
1.99526231496887e+002	(-4.37103048652470e-002dB,1.74267018591112e+002°)
2.04173794466952e+002	(-4.57513831644028e-002dB,1.74134400341075e+002°)
2.08929613085403e+002	(-4.78876268834701e-002dB,1.73998758246777e+002°)
2.13796208950222e+002	(-5.01234229946881e-002dB,1.73860026470389e+002°)
2.18776162394954e+002	(-5.24633559259453e-002dB,1.73718137960985e+002°)
2.23872113856833e+002	(-5.49122159933882e-002dB,1.73573024448222e+002°)
2.29086765276776e+002	(-5.74750081506234e-002dB,1.73424616437314e+002°)
2.34422881531991e+002	(-6.01569610621528e-002dB,1.73272843205433e+002°)
2.39883291901948e+002	(-6.29635365083507e-002dB,1.73117632799668e+002°)
2.45470891568502e+002	(-6.59004391290198e-002dB,1.72958912036658e+002°)
2.51188643150957e+002	(-6.89736265121027e-002dB,1.72796606504076e+002°)
2.57039578276885e+002	(-7.21893196336184e-002dB,1.72630640564086e+002°)
2.63026799189537e+002	(-7.55540136544236e-002dB,1.72460937358951e+002°)
2.69153480392690e+002	(-7.90744890785613e-002dB,1.72287418818966e+002°)
2.75422870333816e+002	(-8.27578232773738e-002dB,1.72110005672889e+002°)
2.81838293126444e+002	(-8.66114023825106e-002dB,1.71928617461065e+002°)
2.88403150312659e+002	(-9.06429335500508e-002dB,1.71743172551445e+002°)
2.95120922666637e+002	(-9.48604575968153e-002dB,1.71553588158715e+002°)
3.01995172040200e+002	(-9.92723620086152e-002dB,1.71359780366755e+002°)
3.09029543251358e+002	(-1.03887394318783e-001dB,1.71161664154664e+002°)
3.16227766016837e+002	(-1.08714675853738e-001dB,1.70959153426596e+002°)
3.23593656929627e+002	(-1.13763715840549e-001dB,1.70752161045669e+002°)
3.31131121482590e+002	(-1.19044425869423e-001dB,1.70540598872203e+002°)
3.38844156139201e+002	(-1.24567134702042e-001dB,1.70324377806592e+002°)
3.46736850452530e+002	(-1.30342603414037e-001dB,1.70103407837071e+002°)
3.54813389233574e+002	(-1.36382040857477e-001dB,1.69877598092703e+002°)
3.63078054770100e+002	(-1.42697119426267e-001dB,1.69646856901899e+002°)
3.71535229097171e+002	(-1.49299991104225e-001dB,1.69411091856776e+002°)
3.80189396320559e+002	(-1.56203303772255e-001dB,1.69170209883717e+002°)
3.89045144994279e+002	(-1.63420217747293e-001dB,1.68924117320447e+002°)
3.98107170553495e+002	(-1.70964422521748e-001dB,1.68672720000008e+002°)
4.07380277804111e+002	(-1.78850153667872e-001dB,1.68415923341958e+002°)
4.16869383470333e+002	(-1.87092209866849e-001dB,1.68153632451200e+002°)
4.26579518801591e+002	(-1.95705970017463e-001dB,1.67885752224771e+002°)
4.36515832240164e+002	(-2.04707410373983e-001dB,1.67612187467001e+002°)
4.46683592150961e+002	(-2.14113121657198e-001dB,1.67332843013399e+002°)
4.57088189614873e+002	(-2.23940326076624e-001dB,1.67047623863635e+002°)
4.67735141287196e+002	(-2.34206894195678e-001dB,1.66756435324007e+002°)
4.78630092322636e+002	(-2.44931361564816e-001dB,1.66459183159749e+002°)
4.89778819368444e+002	(-2.56132945040879e-001dB,1.66155773757524e+002°)
5.01187233627270e+002	(-2.67831558703482e-001dB,1.65846114298466e+002°)
5.12861383991362e+002	(-2.80047829271788e-001dB,1.65530112942075e+002°)
5.24807460249770e+002	(-2.92803110917207e-001dB,1.65207679021275e+002°)
5.37031796370250e+002	(-3.06119499359463e-001dB,1.64878723248925e+002°)
5.49540873857622e+002	(-3.20019845125344e-001dB,1.64543157936000e+002°)
5.62341325190346e+002	(-3.34527765840971e-001dB,1.64200897221676e+002°)
5.75439937337154e+002	(-3.49667657420061e-001dB,1.63851857315470e+002°)
5.88843655355586e+002	(-3.65464704002245e-001dB,1.63495956751551e+002°)
6.02559586074355e+002	(-3.81944886487032e-001dB,1.63133116655291e+002°)
6.16595001861479e+002	(-3.99134989500943e-001dB,1.62763261022025e+002°)
6.30957344480190e+002	(-4.17062606627362e-001dB,1.62386317007972e+002°)
6.45654229034652e+002	(-4.35756143721124e-001dB,1.62002215233141e+002°)
6.60693448007592e+002	(-4.55244820122969e-001dB,1.61610890095977e+002°)
6.76082975391978e+002	(-4.75558667582490e-001dB,1.61212280099413e+002°)
6.91830970918933e+002	(-4.96728526692970e-001dB,1.60806328187876e+002°)
7.07945784384134e+002	(-5.18786040636734e-001dB,1.60392982094681e+002°)
7.24435960074986e+002	(-5.41763646036588e-001dB,1.59972194699140e+002°)
7.41310241300914e+002	(-5.65694560706804e-001dB,1.59543924392564e+002°)
7.58577575029180e+002	(-5.90612768096831e-001dB,1.59108135452207e+002°)
7.76247116628688e+002	(-6.16552998222310e-001dB,1.58664798422055e+002°)
7.94328234724277e+002	(-6.43550704881372e-001dB,1.58213890499208e+002°)
8.12830516164095e+002	(-6.71642038959850e-001dB,1.57755395924443e+002°)
8.31763771102666e+002	(-7.00863817637061e-001dB,1.57289306375391e+002°)
8.51138038202372e+002	(-7.31253489314441e-001dB,1.56815621360580e+002°)
8.70963589956076e+002	(-7.62849094102910e-001dB,1.56334348612447e+002°)
8.91250938133741e+002	(-7.95689219721183e-001dB,1.55845504477238e+002°)
9.12010839355905e+002	(-8.29812952677039e-001dB,1.55349114299555e+002°)
9.33254300796986e+002	(-8.65259824626348e-001dB,1.54845212799151e+002°)
9.54992586021431e+002	(-9.02069753831057e-001dB,1.54333844437423e+002°)
9.77237220955805e+002	(-9.40282981666962e-001dB,1.53815063770896e+002°)
9.99999999999994e+002	(-9.79940004165336e-001dB,1.53288935788866e+002°)
1.02329299228075e+003	(-1.02108149860891e+000dB,1.52755536232278e+002°)
1.04712854805089e+003	(-1.06374824524253e+000dB,1.52214951890773e+002°)
1.07151930523760e+003	(-1.10798104420168e+000dB,1.51667280874808e+002°)
1.09647819614318e+003	(-1.15382062780753e+000dB,1.51112632859694e+002°)
1.12201845430196e+003	(-1.20130756842558e+000dB,1.50551129298352e+002°)
1.14815362149688e+003	(-1.25048218213500e+000dB,1.49982903599658e+002°)
1.17489755493952e+003	(-1.30138442850738e+000dB,1.49408101269240e+002°)
1.20226443461741e+003	(-1.35405380684661e+000dB,1.48826880009714e+002°)
1.23026877081237e+003	(-1.40852924929454e+000dB,1.48239409777466e+002°)
1.25892541179416e+003	(-1.46484901125970e+000dB,1.47645872793247e+002°)
1.28824955169313e+003	(-1.52305055967796e+000dB,1.47046463504078e+002°)
1.31825673855640e+003	(-1.58317045966349e+000dB,1.46441388494202e+002°)
1.34896288259165e+003	(-1.64524426015477e+000dB,1.45830866343133e+002°)
1.38038426460288e+003	(-1.70930637920357e+000dB,1.45215127429180e+002°)
1.41253754462275e+003	(-1.77538998959243e+000dB,1.44594413677219e+002°)
1.44543977074592e+003	(-1.84352690549907e+000dB,1.43968978249899e+002°)
1.47910838816820e+003	(-1.91374747095185e+000dB,1.43339085181917e+002°)
1.51356124843620e+003	(-1.98608045083941e+000dB,1.42705008957479e+002°)
1.54881661891247e+003	(-2.06055292524825e+000dB,1.42067034031578e+002°)
1.58489319246110e+003	(-2.13719018790439e+000dB,1.41425454296230e+002°)
1.62181009735892e+003	(-2.21601564948819e+000dB,1.40780572493345e+002°)
1.65958690743755e+003	(-2.29705074657552e+000dB,1.40132699576434e+002°)
1.69824365246173e+003	(-2.38031485693226e+000dB,1.39482154023910e+002°)
1.73780082874936e+003	(-2.46582522185393e+000dB,1.38829261107209e+002°)
1.77827941003891e+003	(-2.55359687619753e+000dB,1.38174352117494e+002°)
1.81970085860997e+003	(-2.64364258669870e+000dB,1.37517763555132e+002°)
1.86208713666286e+003	(-2.73597279910493e+000dB,1.36859836286570e+002°)
1.90546071796323e+003	(-2.83059559458588e+000dB,1.36200914673619e+002°)
1.94984459975803e+003	(-2.92751665580464e+000dB,1.35541345680447e+002°)
1.99526231496887e+003	(-3.02673924295129e+000dB,1.34881477963885e+002°)
2.04173794466952e+003	(-3.12826417995312e+000dB,1.34221660952813e+002°)
2.08929613085403e+003	(-3.23208985098499e+000dB,1.33562243922546e+002°)
2.13796208950222e+003	(-3.33821220731146e+000dB,1.32903575070187e+002°)
2.18776162394954e+003	(-3.44662478439889e+000dB,1.32246000596909e+002°)
2.23872113856832e+003	(-3.55731872914456e+000dB,1.31589863803048e+002°)
2.29086765276776e+003	(-3.67028283697944e+000dB,1.30935504201718e+002°)
2.34422881531991e+003	(-3.78550359851620e+000dB,1.30283256656467e+002°)
2.39883291901947e+003	(-3.90296525533262e+000dB,1.29633450548195e+002°)
2.45470891568501e+003	(-4.02264986440616e+000dB,1.28986408976201e+002°)
2.51188643150956e+003	(-4.14453737064766e+000dB,1.28342447997876e+002°)
2.57039578276885e+003	(-4.26860568692257e+000dB,1.27701875911071e+002°)
2.63026799189536e+003	(-4.39483078089717e+000dB,1.27064992582757e+002°)
2.69153480392690e+003	(-4.52318676800560e+000dB,1.26432088827026e+002°)
2.75422870333815e+003	(-4.65364600980086e+000dB,1.25803445835043e+002°)
2.81838293126443e+003	(-4.78617921693072e+000dB,1.25179334658941e+002°)
2.88403150312659e+003	(-4.92075555596597e+000dB,1.24560015751201e+002°)
2.95120922666636e+003	(-5.05734275930464e+000dB,1.23945738560467e+002°)
3.01995172040199e+003	(-5.19590723738109e+000dB,1.23336741184260e+002°)
3.09029543251357e+003	(-5.33641419242215e+000dB,1.22733250078554e+002°)
3.16227766016836e+003	(-5.47882773301366e+000dB,1.22135479823702e+002°)
3.23593656929626e+003	(-5.62311098876910e+000dB,1.21543632945753e+002°)
3.31131121482589e+003	(-5.76922622442641e+000dB,1.20957899791802e+002°)
3.38844156139200e+003	(-5.91713495273862e+000dB,1.20378458457645e+002°)
3.46736850452529e+003	(-6.06679804556818e+000dB,1.19805474765676e+002°)
3.54813389233573e+003	(-6.21817584264249e+000dB,1.19239102290687e+002°)
3.63078054770099e+003	(-6.37122825747830e+000dB,1.18679482430980e+002°)
3.71535229097170e+003	(-6.52591488003468e+000dB,1.18126744522012e+002°)
3.80189396320558e+003	(-6.68219507570707e+000dB,1.17581005989629e+002°)
3.89045144994278e+003	(-6.84002808032813e+000dB,1.17042372539824e+002°)
3.98107170553494e+003	(-6.99937309089332e+000dB,1.16510938381910e+002°)
4.07380277804110e+003	(-7.16018935178073e+000dB,1.15986786481911e+002°)
4.16869383470332e+003	(-7.32243623628400e+000dB,1.15469988843014e+002°)
4.26579518801589e+003	(-7.48607332332478e+000dB,1.14960606809930e+002°)
4.36515832240162e+003	(-7.65106046925564e+000dB,1.14458691394076e+002°)
4.46683592150960e+003	(-7.81735787470658e+000dB,1.13964283616559e+002°)
4.57088189614871e+003	(-7.98492614646665e+000dB,1.13477414866063e+002°)
4.67735141287194e+003	(-8.15372635442791e+000dB,1.12998107268840e+002°)
4.78630092322634e+003	(-8.32372008365083e+000dB,1.12526374068165e+002°)
4.89778819368442e+003	(-8.49486948163893e+000dB,1.12062220010736e+002°)
5.01187233627268e+003	(-8.66713730093551e+000dB,1.11605641737678e+002°)
5.12861383991361e+003	(-8.84048693717745e+000dB,1.11156628177956e+002°)
5.24807460249768e+003	(-9.01488246275923e+000dB,1.10715160942190e+002°)
5.37031796370248e+003	(-9.19028865627633e+000dB,1.10281214715001e+002°)
5.49540873857620e+003	(-9.36667102792922e+000dB,1.09854757644219e+002°)
5.62341325190344e+003	(-9.54399584107931e+000dB,1.09435751725428e+002°)
5.75439937337152e+003	(-9.72223013015529e+000dB,1.09024153180485e+002°)
